T17D0 000:005.432   SEGGER J-Link V6.86 Log File
T17D0 000:005.632   DLL Compiled: Sep 24 2020 17:31:31
T17D0 000:005.638   Logging started @ 2020-12-04 06:35
T17D0 000:005.644 - 5.648ms
T17D0 000:005.659 JLINK_SetWarnOutHandler(...)
T17D0 000:005.667 - 0.010ms
T17D0 000:005.674 JLINK_OpenEx(...)
T17D0 000:008.179   Firmware: J-Link V9 compiled Dec 13 2019 11:14:50
T17D0 000:008.400   Decompressing FW timestamp took 175 us
T17D0 000:016.446   Hardware: V9.70
T17D0 000:016.468   S/N: 59701338
T17D0 000:016.478   OEM: SEGGER
T17D0 000:016.487   Feature(s): RDI, GDB, FlashDL, FlashBP, JFlash
T17D0 000:018.264   TELNET listener socket opened on port 19021
T17D0 000:018.408   WEBSRV Starting webserver
T17D0 000:018.542   WEBSRV Webserver running on local port 19080
T17D0 000:018.554 - 12.882ms returns "O.K."
T17D0 000:018.570 JLINK_GetEmuCaps()
T17D0 000:018.577 - 0.009ms returns 0xB9FF7BBF
T17D0 000:018.588 JLINK_TIF_GetAvailable(...)
T17D0 000:018.925 - 0.344ms
T17D0 000:018.939 JLINK_SetErrorOutHandler(...)
T17D0 000:018.945 - 0.009ms
T17D0 000:018.966 JLINK_ExecCommand("ProjectFile = "E:\Kingsmith\code\correction\USER\JLinkSettings.ini"", ...). 
T17D0 000:028.972 - 10.020ms returns 0x00
T17D0 000:030.742 JLINK_ExecCommand("Device = STM32F103ZE", ...). 
T17D0 000:032.968   Device "STM32F103ZE" selected.
T17D0 000:033.852 - 3.101ms returns 0x00
T17D0 000:033.873 JLINK_GetHardwareVersion()
T17D0 000:033.880 - 0.010ms returns 97000
T17D0 000:033.896 JLINK_GetDLLVersion()
T17D0 000:033.903 - 0.010ms returns 68600
T17D0 000:033.911 JLINK_GetOEMString(...)
T17D0 000:033.919 JLINK_GetFirmwareString(...)
T17D0 000:033.926 - 0.009ms
T17D0 000:043.533 JLINK_GetDLLVersion()
T17D0 000:043.553 - 0.023ms returns 68600
T17D0 000:043.562 JLINK_GetCompileDateTime()
T17D0 000:043.568 - 0.008ms
T17D0 000:046.698 JLINK_GetFirmwareString(...)
T17D0 000:046.713 - 0.018ms
T17D0 000:049.904 JLINK_GetHardwareVersion()
T17D0 000:049.915 - 0.014ms returns 97000
T17D0 000:053.390 JLINK_GetSN()
T17D0 000:053.402 - 0.014ms returns 59701338
T17D0 000:056.891 JLINK_GetOEMString(...)
T17D0 000:064.254 JLINK_TIF_Select(JLINKARM_TIF_SWD)
T17D0 000:065.604 - 1.358ms returns 0x00
T17D0 000:065.619 JLINK_HasError()
T17D0 000:065.638 JLINK_SetSpeed(5000)
T17D0 000:065.911 - 0.279ms
T17D0 000:065.925 JLINK_GetId()
T17D0 000:071.667   Found SW-DP with ID 0x1BA01477
T17D0 000:100.501   Found SW-DP with ID 0x1BA01477
T17D0 000:103.335   Old FW that does not support reading DPIDR via DAP jobs
T17D0 000:107.723   Unknown DP version. Assuming DPv0
T17D0 000:111.374   Scanning AP map to find all available APs
T17D0 000:115.515   AP[1]: Stopped AP scan as end of AP map has been reached
T17D0 000:118.728   AP[0]: AHB-AP (IDR: 0x14770011)
T17D0 000:122.279   Iterating through AP map to find AHB-AP to use
T17D0 000:127.150   AP[0]: Core found
T17D0 000:130.619   AP[0]: AHB-AP ROM base: 0xE00FF000
T17D0 000:134.552   CPUID register: 0x411FC231. Implementer code: 0x41 (ARM)
T17D0 000:137.708   Found Cortex-M3 r1p1, Little endian.
T17D0 000:239.468   -- Max. mem block: 0x00010BB0
T17D0 000:239.582   CPU_ReadMem(4 bytes @ 0xE000EDF0)
T17D0 000:240.562   CPU_ReadMem(4 bytes @ 0xE0002000)
T17D0 000:255.717   FPUnit: 6 code (BP) slots and 2 literal slots
T17D0 000:255.828   CPU_ReadMem(4 bytes @ 0xE000EDFC)
T17D0 000:256.485   CPU_WriteMem(4 bytes @ 0xE000EDFC)
T17D0 000:257.102   CPU_ReadMem(4 bytes @ 0xE0001000)
T17D0 000:257.702   CPU_WriteMem(4 bytes @ 0xE0001000)
T17D0 000:258.265   CPU_ReadMem(4 bytes @ 0xE000ED88)
T17D0 000:258.833   CPU_WriteMem(4 bytes @ 0xE000ED88)
T17D0 000:259.342   CPU_ReadMem(4 bytes @ 0xE000ED88)
T17D0 000:259.902   CPU_WriteMem(4 bytes @ 0xE000ED88)
T17D0 000:268.407   CoreSight components:
T17D0 000:273.877   ROMTbl[0] @ E00FF000
T17D0 000:273.917   CPU_ReadMem(64 bytes @ 0xE00FF000)
T17D0 000:274.629   CPU_ReadMem(32 bytes @ 0xE000EFE0)
T17D0 000:279.742   ROMTbl[0][0]: E000E000, CID: B105E00D, PID: 001BB000 SCS
T17D0 000:279.773   CPU_ReadMem(32 bytes @ 0xE0001FE0)
T17D0 000:284.256   ROMTbl[0][1]: E0001000, CID: B105E00D, PID: 001BB002 DWT
T17D0 000:284.323   CPU_ReadMem(32 bytes @ 0xE0002FE0)
T17D0 000:288.656   ROMTbl[0][2]: E0002000, CID: B105E00D, PID: 000BB003 FPB
T17D0 000:288.680   CPU_ReadMem(32 bytes @ 0xE0000FE0)
T17D0 000:293.355   ROMTbl[0][3]: E0000000, CID: B105E00D, PID: 001BB001 ITM
T17D0 000:293.387   CPU_ReadMem(32 bytes @ 0xE0040FE0)
T17D0 000:297.267   ROMTbl[0][4]: E0040000, CID: B105900D, PID: 001BB923 TPIU-Lite
T17D0 000:297.735 - 231.816ms returns 0x1BA01477
T17D0 000:297.753 JLINK_GetDLLVersion()
T17D0 000:297.759 - 0.009ms returns 68600
T17D0 000:297.793 JLINK_CORE_GetFound()
T17D0 000:297.799 - 0.009ms returns 0x30000FF
T17D0 000:297.806 JLINK_GetDebugInfo(0x100 = JLINKARM_ROM_TABLE_ADDR_INDEX)
T17D0 000:297.814   Value=0xE00FF000
T17D0 000:297.822 - 0.018ms returns 0
T17D0 000:301.482 JLINK_GetDebugInfo(0x100 = JLINKARM_ROM_TABLE_ADDR_INDEX)
T17D0 000:301.502   Value=0xE00FF000
T17D0 000:301.513 - 0.034ms returns 0
T17D0 000:301.524 JLINK_GetDebugInfo(0x101 = JLINKARM_DEBUG_INFO_ETM_ADDR_INDEX)
T17D0 000:301.532   Value=0x00000000
T17D0 000:301.542 - 0.021ms returns 0
T17D0 000:301.562 JLINK_ReadMemEx(0xE0041FF0, 0x10 Bytes, Flags = 0x02000004)
T17D0 000:301.619   CPU_ReadMem(16 bytes @ 0xE0041FF0)
T17D0 000:302.107   Data:  00 00 00 00 00 00 00 00 00 00 00 00 00 00 00 00
T17D0 000:302.119 - 0.561ms returns 16 (0x10)
T17D0 000:302.130 JLINK_GetDebugInfo(0x102 = JLINKARM_DEBUG_INFO_MTB_ADDR_INDEX)
T17D0 000:302.137   Value=0x00000000
T17D0 000:302.145 - 0.018ms returns 0
T17D0 000:302.153 JLINK_GetDebugInfo(0x103 = JLINKARM_DEBUG_INFO_TPIU_ADDR_INDEX)
T17D0 000:302.160   Value=0xE0040000
T17D0 000:302.169 - 0.018ms returns 0
T17D0 000:302.176 JLINK_GetDebugInfo(0x104 = JLINKARM_DEBUG_INFO_ITM_ADDR_INDEX)
T17D0 000:302.183   Value=0xE0000000
T17D0 000:302.192 - 0.018ms returns 0
T17D0 000:302.199 JLINK_GetDebugInfo(0x105 = JLINKARM_DEBUG_INFO_DWT_ADDR_INDEX)
T17D0 000:302.206   Value=0xE0001000
T17D0 000:302.214 - 0.018ms returns 0
T17D0 000:302.222 JLINK_GetDebugInfo(0x106 = JLINKARM_DEBUG_INFO_FPB_ADDR_INDEX)
T17D0 000:302.229   Value=0xE0002000
T17D0 000:302.238 - 0.018ms returns 0
T17D0 000:302.245 JLINK_GetDebugInfo(0x107 = JLINKARM_DEBUG_INFO_NVIC_ADDR_INDEX)
T17D0 000:302.251   Value=0xE000E000
T17D0 000:302.260 - 0.018ms returns 0
T17D0 000:302.268 JLINK_GetDebugInfo(0x10C = JLINKARM_DEBUG_INFO_DBG_ADDR_INDEX)
T17D0 000:302.274   Value=0xE000EDF0
T17D0 000:302.283 - 0.019ms returns 0
T17D0 000:302.292 JLINK_GetDebugInfo(0x01 = Unknown)
T17D0 000:302.299   Value=0x00000000
T17D0 000:302.307 - 0.018ms returns 0
T17D0 000:302.316 JLINK_ReadMemU32(0xE000ED00, 0x1 Items)
T17D0 000:302.327   CPU_ReadMem(4 bytes @ 0xE000ED00)
T17D0 000:302.802   Data:  31 C2 1F 41
T17D0 000:302.815   Debug reg: CPUID
T17D0 000:302.823 - 0.509ms returns 1 (0x1)
T17D0 000:302.832 JLINK_GetDebugInfo(0x10F = JLINKARM_DEBUG_INFO_HAS_CORTEX_M_SECURITY_EXT_INDEX)
T17D0 000:302.839   Value=0x00000000
T17D0 000:302.847 - 0.017ms returns 0
T17D0 000:302.855 JLINK_HasError()
T17D0 000:302.863 JLINK_SetResetType(JLINKARM_CM3_RESET_TYPE_NORMAL)
T17D0 000:302.869 - 0.009ms returns JLINKARM_CM3_RESET_TYPE_NORMAL
T17D0 000:302.876 JLINK_Reset()
T17D0 000:302.899   CPU is running
T17D0 000:302.910   CPU_WriteMem(4 bytes @ 0xE000EDF0)
T17D0 000:303.385   CPU is running
T17D0 000:303.397   CPU_WriteMem(4 bytes @ 0xE000EDFC)
T17D0 000:307.969   Reset: Halt core after reset via DEMCR.VC_CORERESET.
T17D0 000:312.397   Reset: Reset device via AIRCR.SYSRESETREQ.
T17D0 000:312.420   CPU is running
T17D0 000:312.432   CPU_WriteMem(4 bytes @ 0xE000ED0C)
T17D0 000:365.427   CPU_ReadMem(4 bytes @ 0xE000EDF0)
T17D0 000:365.884   CPU_ReadMem(4 bytes @ 0xE000EDF0)
T17D0 000:366.377   CPU is running
T17D0 000:366.393   CPU_WriteMem(4 bytes @ 0xE000EDF0)
T17D0 000:366.859   CPU is running
T17D0 000:366.875   CPU_WriteMem(4 bytes @ 0xE000EDFC)
T17D0 000:372.619   CPU_ReadMem(4 bytes @ 0xE000EDF0)
T17D0 000:375.393   CPU_WriteMem(4 bytes @ 0xE0002000)
T17D0 000:375.878   CPU_ReadMem(4 bytes @ 0xE000EDFC)
T17D0 000:376.417   CPU_ReadMem(4 bytes @ 0xE0001000)
T17D0 000:376.903 - 74.037ms
T17D0 000:376.930 JLINK_Halt()
T17D0 000:376.941 - 0.016ms returns 0x00
T17D0 000:376.991 JLINK_ReadMemU32(0xE000EDF0, 0x1 Items)
T17D0 000:377.010   CPU_ReadMem(4 bytes @ 0xE000EDF0)
T17D0 000:377.537   Data:  03 00 03 00
T17D0 000:377.560   Debug reg: DHCSR
T17D0 000:377.576 - 0.590ms returns 1 (0x1)
T17D0 000:377.607 JLINK_WriteU32_64(0xE000EDF0, 0xA05F0003)
T17D0 000:377.625   Debug reg: DHCSR
T17D0 000:377.672   CPU_WriteMem(4 bytes @ 0xE000EDF0)
T17D0 000:378.135 - 0.538ms returns 0 (0x00000000)
T17D0 000:378.158 JLINK_WriteU32_64(0xE000EDFC, 0x01000000)
T17D0 000:378.171   Debug reg: DEMCR
T17D0 000:378.195   CPU_WriteMem(4 bytes @ 0xE000EDFC)
T17D0 000:378.700 - 0.552ms returns 0 (0x00000000)
T17D0 000:400.468 JLINK_GetHWStatus(...)
T17D0 000:400.798 - 0.338ms returns 0
T17D0 000:411.838 JLINK_GetNumBPUnits(Type = 0xFFFFFF00)
T17D0 000:411.861 - 0.025ms returns 0x06
T17D0 000:411.869 JLINK_GetNumBPUnits(Type = 0xF0)
T17D0 000:411.875 - 0.008ms returns 0x2000
T17D0 000:411.883 JLINK_GetNumWPUnits()
T17D0 000:411.889 - 0.008ms returns 4
T17D0 000:421.705 JLINK_GetSpeed()
T17D0 000:421.723 - 0.022ms returns 4000
T17D0 000:428.746 JLINK_ReadMemU32(0xE000E004, 0x1 Items)
T17D0 000:428.777   CPU_ReadMem(4 bytes @ 0xE000E004)
T17D0 000:429.187   Data:  01 00 00 00
T17D0 000:429.199 - 0.455ms returns 1 (0x1)
T17D0 000:429.209 JLINK_ReadMemU32(0xE000E004, 0x1 Items)
T17D0 000:429.219   CPU_ReadMem(4 bytes @ 0xE000E004)
T17D0 000:429.655   Data:  01 00 00 00
T17D0 000:429.666 - 0.460ms returns 1 (0x1)
T17D0 000:429.676 JLINK_WriteMemEx(0xE0001000, 0x0000001C Bytes, Flags = 0x02000004)
T17D0 000:429.683   Data:  01 00 00 00 00 00 00 00 00 00 00 00 00 00 00 00 ...
T17D0 000:430.200   CPU_WriteMem(28 bytes @ 0xE0001000)
T17D0 000:430.767 - 1.097ms returns 0x1C
T17D0 000:430.784 JLINK_Halt()
T17D0 000:430.791 - 0.010ms returns 0x00
T17D0 000:430.799 JLINK_IsHalted()
T17D0 000:430.807 - 0.010ms returns TRUE
T17D0 000:433.303 JLINK_WriteMem(0x20000000, 0x164 Bytes, ...)
T17D0 000:433.314   Data:  00 BE 0A E0 0D 78 2D 06 68 40 08 24 40 00 00 D3 ...
T17D0 000:433.963   CPU_WriteMem(356 bytes @ 0x20000000)
T17D0 000:435.767 - 2.470ms returns 0x164
T17D0 000:435.806 JLINK_HasError()
T17D0 000:435.816 JLINK_WriteReg(R0, 0x08000000)
T17D0 000:435.825 - 0.012ms returns 0
T17D0 000:435.832 JLINK_WriteReg(R1, 0x00B71B00)
T17D0 000:435.839 - 0.009ms returns 0
T17D0 000:435.846 JLINK_WriteReg(R2, 0x00000001)
T17D0 000:435.853 - 0.009ms returns 0
T17D0 000:435.860 JLINK_WriteReg(R3, 0x00000000)
T17D0 000:435.866 - 0.009ms returns 0
T17D0 000:435.874 JLINK_WriteReg(R4, 0x00000000)
T17D0 000:435.880 - 0.009ms returns 0
T17D0 000:435.887 JLINK_WriteReg(R5, 0x00000000)
T17D0 000:435.893 - 0.009ms returns 0
T17D0 000:435.901 JLINK_WriteReg(R6, 0x00000000)
T17D0 000:435.907 - 0.009ms returns 0
T17D0 000:435.914 JLINK_WriteReg(R7, 0x00000000)
T17D0 000:435.920 - 0.009ms returns 0
T17D0 000:435.928 JLINK_WriteReg(R8, 0x00000000)
T17D0 000:435.946 - 0.021ms returns 0
T17D0 000:435.953 JLINK_WriteReg(R9, 0x20000160)
T17D0 000:435.960 - 0.009ms returns 0
T17D0 000:435.967 JLINK_WriteReg(R10, 0x00000000)
T17D0 000:435.973 - 0.009ms returns 0
T17D0 000:435.981 JLINK_WriteReg(R11, 0x00000000)
T17D0 000:435.987 - 0.009ms returns 0
T17D0 000:435.994 JLINK_WriteReg(R12, 0x00000000)
T17D0 000:436.000 - 0.009ms returns 0
T17D0 000:436.008 JLINK_WriteReg(R13 (SP), 0x20001000)
T17D0 000:436.015 - 0.009ms returns 0
T17D0 000:436.022 JLINK_WriteReg(R14, 0x20000001)
T17D0 000:436.028 - 0.009ms returns 0
T17D0 000:436.035 JLINK_WriteReg(R15 (PC), 0x20000038)
T17D0 000:436.047 - 0.014ms returns 0
T17D0 000:436.054 JLINK_WriteReg(XPSR, 0x01000000)
T17D0 000:436.061 - 0.009ms returns 0
T17D0 000:436.068 JLINK_WriteReg(MSP, 0x20001000)
T17D0 000:436.074 - 0.009ms returns 0
T17D0 000:436.082 JLINK_WriteReg(PSP, 0x20001000)
T17D0 000:436.088 - 0.012ms returns 0
T17D0 000:436.100 JLINK_WriteReg(CFBP, 0x00000000)
T17D0 000:436.106 - 0.009ms returns 0
T17D0 000:436.114 JLINK_SetBPEx(Addr = 0x20000000, Type = 0xFFFFFFF2)
T17D0 000:436.128   CPU_ReadMem(2 bytes @ 0x20000000)
T17D0 000:436.563 - 0.455ms returns 0x00000001
T17D0 000:436.575 JLINK_Go()
T17D0 000:436.584   CPU_WriteMem(2 bytes @ 0x20000000)
T17D0 000:437.067   CPU_ReadMem(4 bytes @ 0xE0001000)
T17D0 000:437.525   CPU_WriteMem(4 bytes @ 0xE0002008)
T17D0 000:437.537   CPU_WriteMem(4 bytes @ 0xE000200C)
T17D0 000:437.546   CPU_WriteMem(4 bytes @ 0xE0002010)
T17D0 000:437.555   CPU_WriteMem(4 bytes @ 0xE0002014)
T17D0 000:437.564   CPU_WriteMem(4 bytes @ 0xE0002018)
T17D0 000:437.573   CPU_WriteMem(4 bytes @ 0xE000201C)
T17D0 000:438.760   CPU_WriteMem(4 bytes @ 0xE0001004)
T17D0 000:441.425 - 4.864ms
T17D0 000:441.449 JLINK_IsHalted()
T17D0 000:443.781   CPU_ReadMem(2 bytes @ 0x20000000)
T17D0 000:444.251 - 2.808ms returns TRUE
T17D0 000:444.267 JLINK_ReadReg(R15 (PC))
T17D0 000:444.279 - 0.015ms returns 0x20000000
T17D0 000:444.288 JLINK_ClrBPEx(BPHandle = 0x00000001)
T17D0 000:444.295 - 0.010ms returns 0x00
T17D0 000:444.303 JLINK_ReadReg(R0)
T17D0 000:444.310 - 0.009ms returns 0x00000000
T17D0 000:444.610 JLINK_HasError()
T17D0 000:444.624 JLINK_WriteReg(R0, 0x08000000)
T17D0 000:444.634 - 0.013ms returns 0
T17D0 000:444.642 JLINK_WriteReg(R1, 0x00B71B00)
T17D0 000:444.649 - 0.010ms returns 0
T17D0 000:444.657 JLINK_WriteReg(R2, 0x00000001)
T17D0 000:444.664 - 0.009ms returns 0
T17D0 000:444.672 JLINK_WriteReg(R3, 0x00000000)
T17D0 000:444.678 - 0.009ms returns 0
T17D0 000:444.686 JLINK_WriteReg(R4, 0x00000000)
T17D0 000:444.693 - 0.009ms returns 0
T17D0 000:444.700 JLINK_WriteReg(R5, 0x00000000)
T17D0 000:444.707 - 0.009ms returns 0
T17D0 000:444.715 JLINK_WriteReg(R6, 0x00000000)
T17D0 000:444.721 - 0.009ms returns 0
T17D0 000:444.729 JLINK_WriteReg(R7, 0x00000000)
T17D0 000:444.735 - 0.009ms returns 0
T17D0 000:444.743 JLINK_WriteReg(R8, 0x00000000)
T17D0 000:444.750 - 0.009ms returns 0
T17D0 000:444.758 JLINK_WriteReg(R9, 0x20000160)
T17D0 000:444.764 - 0.009ms returns 0
T17D0 000:444.772 JLINK_WriteReg(R10, 0x00000000)
T17D0 000:444.778 - 0.009ms returns 0
T17D0 000:444.787 JLINK_WriteReg(R11, 0x00000000)
T17D0 000:444.793 - 0.009ms returns 0
T17D0 000:444.801 JLINK_WriteReg(R12, 0x00000000)
T17D0 000:444.807 - 0.009ms returns 0
T17D0 000:444.815 JLINK_WriteReg(R13 (SP), 0x20001000)
T17D0 000:444.822 - 0.010ms returns 0
T17D0 000:444.830 JLINK_WriteReg(R14, 0x20000001)
T17D0 000:444.836 - 0.009ms returns 0
T17D0 000:444.844 JLINK_WriteReg(R15 (PC), 0x2000007C)
T17D0 000:444.851 - 0.009ms returns 0
T17D0 000:444.859 JLINK_WriteReg(XPSR, 0x01000000)
T17D0 000:444.865 - 0.009ms returns 0
T17D0 000:444.873 JLINK_WriteReg(MSP, 0x20001000)
T17D0 000:444.880 - 0.009ms returns 0
T17D0 000:444.888 JLINK_WriteReg(PSP, 0x20001000)
T17D0 000:444.894 - 0.009ms returns 0
T17D0 000:444.902 JLINK_WriteReg(CFBP, 0x00000000)
T17D0 000:444.908 - 0.009ms returns 0
T17D0 000:444.916 JLINK_SetBPEx(Addr = 0x20000000, Type = 0xFFFFFFF2)
T17D0 000:444.925 - 0.012ms returns 0x00000002
T17D0 000:444.933 JLINK_Go()
T17D0 000:444.946   CPU_ReadMem(4 bytes @ 0xE0001000)
T17D0 000:447.602 - 2.675ms
T17D0 000:447.615 JLINK_IsHalted()
T17D0 000:448.047 - 0.437ms returns FALSE
T17D0 000:448.060 JLINK_HasError()
T17D0 000:481.828 JLINK_IsHalted()
T17D0 000:484.115   CPU_ReadMem(2 bytes @ 0x20000000)
T17D0 000:484.596 - 2.773ms returns TRUE
T17D0 000:484.609 JLINK_ReadReg(R15 (PC))
T17D0 000:484.618 - 0.012ms returns 0x20000000
T17D0 000:484.626 JLINK_ClrBPEx(BPHandle = 0x00000002)
T17D0 000:484.632 - 0.009ms returns 0x00
T17D0 000:484.640 JLINK_ReadReg(R0)
T17D0 000:484.647 - 0.009ms returns 0x00000000
T17D0 000:536.738 JLINK_HasError()
T17D0 000:536.768 JLINK_WriteReg(R0, 0x00000001)
T17D0 000:536.784 - 0.019ms returns 0
T17D0 000:536.795 JLINK_WriteReg(R1, 0x00B71B00)
T17D0 000:536.805 - 0.013ms returns 0
T17D0 000:536.816 JLINK_WriteReg(R2, 0x00000001)
T17D0 000:536.876 - 0.069ms returns 0
T17D0 000:536.893 JLINK_WriteReg(R3, 0x00000000)
T17D0 000:536.902 - 0.013ms returns 0
T17D0 000:536.913 JLINK_WriteReg(R4, 0x00000000)
T17D0 000:536.922 - 0.013ms returns 0
T17D0 000:536.933 JLINK_WriteReg(R5, 0x00000000)
T17D0 000:536.941 - 0.013ms returns 0
T17D0 000:536.952 JLINK_WriteReg(R6, 0x00000000)
T17D0 000:536.961 - 0.013ms returns 0
T17D0 000:536.972 JLINK_WriteReg(R7, 0x00000000)
T17D0 000:536.980 - 0.013ms returns 0
T17D0 000:536.991 JLINK_WriteReg(R8, 0x00000000)
T17D0 000:537.000 - 0.013ms returns 0
T17D0 000:537.011 JLINK_WriteReg(R9, 0x20000160)
T17D0 000:537.019 - 0.013ms returns 0
T17D0 000:537.030 JLINK_WriteReg(R10, 0x00000000)
T17D0 000:537.039 - 0.013ms returns 0
T17D0 000:537.050 JLINK_WriteReg(R11, 0x00000000)
T17D0 000:537.058 - 0.029ms returns 0
T17D0 000:537.085 JLINK_WriteReg(R12, 0x00000000)
T17D0 000:537.096 - 0.014ms returns 0
T17D0 000:537.108 JLINK_WriteReg(R13 (SP), 0x20001000)
T17D0 000:537.119 - 0.016ms returns 0
T17D0 000:537.131 JLINK_WriteReg(R14, 0x20000001)
T17D0 000:537.141 - 0.015ms returns 0
T17D0 000:537.153 JLINK_WriteReg(R15 (PC), 0x2000006A)
T17D0 000:537.163 - 0.015ms returns 0
T17D0 000:537.175 JLINK_WriteReg(XPSR, 0x01000000)
T17D0 000:537.186 - 0.015ms returns 0
T17D0 000:537.197 JLINK_WriteReg(MSP, 0x20001000)
T17D0 000:537.208 - 0.015ms returns 0
T17D0 000:537.220 JLINK_WriteReg(PSP, 0x20001000)
T17D0 000:537.230 - 0.015ms returns 0
T17D0 000:537.242 JLINK_WriteReg(CFBP, 0x00000000)
T17D0 000:537.252 - 0.014ms returns 0
T17D0 000:537.264 JLINK_SetBPEx(Addr = 0x20000000, Type = 0xFFFFFFF2)
T17D0 000:537.276 - 0.017ms returns 0x00000003
T17D0 000:537.289 JLINK_Go()
T17D0 000:537.314   CPU_ReadMem(4 bytes @ 0xE0001000)
T17D0 000:540.061 - 2.784ms
T17D0 000:540.084 JLINK_IsHalted()
T17D0 000:542.399   CPU_ReadMem(2 bytes @ 0x20000000)
T17D0 000:542.914 - 2.840ms returns TRUE
T17D0 000:542.938 JLINK_ReadReg(R15 (PC))
T17D0 000:542.956 - 0.023ms returns 0x20000000
T17D0 000:542.970 JLINK_ClrBPEx(BPHandle = 0x00000003)
T17D0 000:542.983 - 0.018ms returns 0x00
T17D0 000:542.997 JLINK_ReadReg(R0)
T17D0 000:543.009 - 0.017ms returns 0x00000000
T17D0 000:553.662 JLINK_WriteMem(0x20000000, 0x164 Bytes, ...)
T17D0 000:553.683   Data:  00 BE 0A E0 0D 78 2D 06 68 40 08 24 40 00 00 D3 ...
T17D0 000:553.714   CPU_WriteMem(356 bytes @ 0x20000000)
T17D0 000:555.568 - 1.917ms returns 0x164
T17D0 000:555.627 JLINK_HasError()
T17D0 000:555.645 JLINK_WriteReg(R0, 0x08000000)
T17D0 000:555.660 - 0.021ms returns 0
T17D0 000:555.675 JLINK_WriteReg(R1, 0x00B71B00)
T17D0 000:555.687 - 0.017ms returns 0
T17D0 000:555.701 JLINK_WriteReg(R2, 0x00000002)
T17D0 000:555.713 - 0.017ms returns 0
T17D0 000:555.727 JLINK_WriteReg(R3, 0x00000000)
T17D0 000:555.739 - 0.017ms returns 0
T17D0 000:555.753 JLINK_WriteReg(R4, 0x00000000)
T17D0 000:555.765 - 0.017ms returns 0
T17D0 000:555.779 JLINK_WriteReg(R5, 0x00000000)
T17D0 000:555.791 - 0.017ms returns 0
T17D0 000:555.804 JLINK_WriteReg(R6, 0x00000000)
T17D0 000:555.816 - 0.017ms returns 0
T17D0 000:555.830 JLINK_WriteReg(R7, 0x00000000)
T17D0 000:555.842 - 0.017ms returns 0
T17D0 000:555.856 JLINK_WriteReg(R8, 0x00000000)
T17D0 000:555.868 - 0.017ms returns 0
T17D0 000:555.882 JLINK_WriteReg(R9, 0x20000160)
T17D0 000:555.893 - 0.017ms returns 0
T17D0 000:555.907 JLINK_WriteReg(R10, 0x00000000)
T17D0 000:555.919 - 0.017ms returns 0
T17D0 000:555.933 JLINK_WriteReg(R11, 0x00000000)
T17D0 000:555.945 - 0.017ms returns 0
T17D0 000:555.959 JLINK_WriteReg(R12, 0x00000000)
T17D0 000:555.971 - 0.017ms returns 0
T17D0 000:555.985 JLINK_WriteReg(R13 (SP), 0x20001000)
T17D0 000:555.997 - 0.018ms returns 0
T17D0 000:556.011 JLINK_WriteReg(R14, 0x20000001)
T17D0 000:556.023 - 0.017ms returns 0
T17D0 000:556.037 JLINK_WriteReg(R15 (PC), 0x20000038)
T17D0 000:556.049 - 0.017ms returns 0
T17D0 000:556.063 JLINK_WriteReg(XPSR, 0x01000000)
T17D0 000:556.075 - 0.017ms returns 0
T17D0 000:556.090 JLINK_WriteReg(MSP, 0x20001000)
T17D0 000:556.107 - 0.026ms returns 0
T17D0 000:556.125 JLINK_WriteReg(PSP, 0x20001000)
T17D0 000:556.137 - 0.017ms returns 0
T17D0 000:556.152 JLINK_WriteReg(CFBP, 0x00000000)
T17D0 000:556.163 - 0.017ms returns 0
T17D0 000:556.177 JLINK_SetBPEx(Addr = 0x20000000, Type = 0xFFFFFFF2)
T17D0 000:556.196   CPU_ReadMem(2 bytes @ 0x20000000)
T17D0 000:556.691 - 0.532ms returns 0x00000004
T17D0 000:556.726 JLINK_Go()
T17D0 000:556.745   CPU_WriteMem(2 bytes @ 0x20000000)
T17D0 000:557.245   CPU_ReadMem(4 bytes @ 0xE0001000)
T17D0 000:560.102 - 3.388ms
T17D0 000:560.130 JLINK_IsHalted()
T17D0 000:562.393   CPU_ReadMem(2 bytes @ 0x20000000)
T17D0 000:562.886 - 2.766ms returns TRUE
T17D0 000:562.913 JLINK_ReadReg(R15 (PC))
T17D0 000:562.928 - 0.021ms returns 0x20000000
T17D0 000:562.983 JLINK_ClrBPEx(BPHandle = 0x00000004)
T17D0 000:562.995 - 0.018ms returns 0x00
T17D0 000:563.009 JLINK_ReadReg(R0)
T17D0 000:563.021 - 0.017ms returns 0x00000000
T17D0 000:563.520 JLINK_WriteMem(0x20000164, 0x29C Bytes, ...)
T17D0 000:563.540   Data:  20 13 00 20 F5 35 00 08 05 0B 00 08 07 0B 00 08 ...
T17D0 000:563.568   CPU_WriteMem(668 bytes @ 0x20000164)
T17D0 000:566.450 - 2.941ms returns 0x29C
T17D0 000:566.474 JLINK_WriteMem(0x20000400, 0x164 Bytes, ...)
T17D0 000:566.487   Data:  A0 8A EC 49 08 80 00 20 B0 49 08 70 20 7D 48 70 ...
T17D0 000:566.512   CPU_WriteMem(356 bytes @ 0x20000400)
T17D0 000:568.309 - 1.846ms returns 0x164
T17D0 000:568.333 JLINK_HasError()
T17D0 000:568.349 JLINK_WriteReg(R0, 0x08000000)
T17D0 000:568.364 - 0.020ms returns 0
T17D0 000:568.379 JLINK_WriteReg(R1, 0x00000400)
T17D0 000:568.391 - 0.017ms returns 0
T17D0 000:568.405 JLINK_WriteReg(R2, 0x20000164)
T17D0 000:568.417 - 0.017ms returns 0
T17D0 000:568.431 JLINK_WriteReg(R3, 0x00000000)
T17D0 000:568.442 - 0.017ms returns 0
T17D0 000:568.456 JLINK_WriteReg(R4, 0x00000000)
T17D0 000:568.468 - 0.017ms returns 0
T17D0 000:568.482 JLINK_WriteReg(R5, 0x00000000)
T17D0 000:568.494 - 0.017ms returns 0
T17D0 000:568.508 JLINK_WriteReg(R6, 0x00000000)
T17D0 000:568.519 - 0.017ms returns 0
T17D0 000:568.533 JLINK_WriteReg(R7, 0x00000000)
T17D0 000:568.545 - 0.017ms returns 0
T17D0 000:568.559 JLINK_WriteReg(R8, 0x00000000)
T17D0 000:568.571 - 0.017ms returns 0
T17D0 000:568.585 JLINK_WriteReg(R9, 0x20000160)
T17D0 000:568.599 - 0.019ms returns 0
T17D0 000:568.612 JLINK_WriteReg(R10, 0x00000000)
T17D0 000:568.624 - 0.017ms returns 0
T17D0 000:568.639 JLINK_WriteReg(R11, 0x00000000)
T17D0 000:568.650 - 0.017ms returns 0
T17D0 000:568.664 JLINK_WriteReg(R12, 0x00000000)
T17D0 000:568.676 - 0.017ms returns 0
T17D0 000:568.690 JLINK_WriteReg(R13 (SP), 0x20001000)
T17D0 000:568.703 - 0.018ms returns 0
T17D0 000:568.717 JLINK_WriteReg(R14, 0x20000001)
T17D0 000:568.729 - 0.017ms returns 0
T17D0 000:568.743 JLINK_WriteReg(R15 (PC), 0x200000F4)
T17D0 000:568.755 - 0.018ms returns 0
T17D0 000:568.770 JLINK_WriteReg(XPSR, 0x01000000)
T17D0 000:568.781 - 0.017ms returns 0
T17D0 000:568.795 JLINK_WriteReg(MSP, 0x20001000)
T17D0 000:568.807 - 0.017ms returns 0
T17D0 000:568.821 JLINK_WriteReg(PSP, 0x20001000)
T17D0 000:568.833 - 0.017ms returns 0
T17D0 000:568.847 JLINK_WriteReg(CFBP, 0x00000000)
T17D0 000:568.859 - 0.017ms returns 0
T17D0 000:568.873 JLINK_SetBPEx(Addr = 0x20000000, Type = 0xFFFFFFF2)
T17D0 000:568.888 - 0.020ms returns 0x00000005
T17D0 000:568.902 JLINK_Go()
T17D0 000:568.923   CPU_ReadMem(4 bytes @ 0xE0001000)
T17D0 000:571.667 - 2.778ms
T17D0 000:571.694 JLINK_IsHalted()
T17D0 000:572.164 - 0.482ms returns FALSE
T17D0 000:572.189 JLINK_HasError()
T17D0 000:580.574 JLINK_IsHalted()
T17D0 000:581.078 - 0.515ms returns FALSE
T17D0 000:581.102 JLINK_HasError()
T17D0 000:582.569 JLINK_IsHalted()
T17D0 000:583.032 - 0.473ms returns FALSE
T17D0 000:583.056 JLINK_HasError()
T17D0 000:584.563 JLINK_IsHalted()
T17D0 000:585.072 - 0.519ms returns FALSE
T17D0 000:585.095 JLINK_HasError()
T17D0 000:586.556 JLINK_IsHalted()
T17D0 000:587.021 - 0.476ms returns FALSE
T17D0 000:587.045 JLINK_HasError()
T17D0 000:588.552 JLINK_IsHalted()
T17D0 000:589.017 - 0.476ms returns FALSE
T17D0 000:589.044 JLINK_HasError()
T17D0 000:599.519 JLINK_IsHalted()
T17D0 000:600.008 - 0.498ms returns FALSE
T17D0 000:600.029 JLINK_HasError()
T17D0 000:601.511 JLINK_IsHalted()
T17D0 000:601.962 - 0.460ms returns FALSE
T17D0 000:601.981 JLINK_HasError()
T17D0 000:603.507 JLINK_IsHalted()
T17D0 000:605.788   CPU_ReadMem(2 bytes @ 0x20000000)
T17D0 000:606.246 - 2.748ms returns TRUE
T17D0 000:606.266 JLINK_ReadReg(R15 (PC))
T17D0 000:606.279 - 0.018ms returns 0x20000000
T17D0 000:606.292 JLINK_ClrBPEx(BPHandle = 0x00000005)
T17D0 000:606.302 - 0.014ms returns 0x00
T17D0 000:606.314 JLINK_ReadReg(R0)
T17D0 000:606.324 - 0.014ms returns 0x00000000
T17D0 000:607.004 JLINK_WriteMem(0x20000164, 0x29C Bytes, ...)
T17D0 000:607.020   Data:  02 13 E8 17 05 EB 10 50 01 13 DA A0 06 F0 EE FA ...
T17D0 000:607.044   CPU_WriteMem(668 bytes @ 0x20000164)
T17D0 000:609.949 - 2.953ms returns 0x29C
T17D0 000:609.968 JLINK_WriteMem(0x20000400, 0x164 Bytes, ...)
T17D0 000:609.979   Data:  72 65 73 65 74 5F 70 6F 73 69 74 69 6F 6E 00 00 ...
T17D0 000:609.999   CPU_WriteMem(356 bytes @ 0x20000400)
T17D0 000:611.863 - 1.904ms returns 0x164
T17D0 000:611.883 JLINK_HasError()
T17D0 000:611.895 JLINK_WriteReg(R0, 0x08000400)
T17D0 000:611.908 - 0.017ms returns 0
T17D0 000:611.920 JLINK_WriteReg(R1, 0x00000400)
T17D0 000:611.930 - 0.014ms returns 0
T17D0 000:611.942 JLINK_WriteReg(R2, 0x20000164)
T17D0 000:611.951 - 0.014ms returns 0
T17D0 000:611.963 JLINK_WriteReg(R3, 0x00000000)
T17D0 000:611.973 - 0.014ms returns 0
T17D0 000:611.984 JLINK_WriteReg(R4, 0x00000000)
T17D0 000:611.994 - 0.014ms returns 0
T17D0 000:612.005 JLINK_WriteReg(R5, 0x00000000)
T17D0 000:612.015 - 0.014ms returns 0
T17D0 000:612.026 JLINK_WriteReg(R6, 0x00000000)
T17D0 000:612.036 - 0.014ms returns 0
T17D0 000:612.047 JLINK_WriteReg(R7, 0x00000000)
T17D0 000:612.057 - 0.014ms returns 0
T17D0 000:612.069 JLINK_WriteReg(R8, 0x00000000)
T17D0 000:612.078 - 0.014ms returns 0
T17D0 000:612.090 JLINK_WriteReg(R9, 0x20000160)
T17D0 000:612.100 - 0.014ms returns 0
T17D0 000:612.111 JLINK_WriteReg(R10, 0x00000000)
T17D0 000:612.121 - 0.014ms returns 0
T17D0 000:612.132 JLINK_WriteReg(R11, 0x00000000)
T17D0 000:612.142 - 0.014ms returns 0
T17D0 000:612.154 JLINK_WriteReg(R12, 0x00000000)
T17D0 000:612.163 - 0.014ms returns 0
T17D0 000:612.175 JLINK_WriteReg(R13 (SP), 0x20001000)
T17D0 000:612.185 - 0.015ms returns 0
T17D0 000:612.197 JLINK_WriteReg(R14, 0x20000001)
T17D0 000:612.206 - 0.014ms returns 0
T17D0 000:612.218 JLINK_WriteReg(R15 (PC), 0x200000F4)
T17D0 000:612.228 - 0.014ms returns 0
T17D0 000:612.240 JLINK_WriteReg(XPSR, 0x01000000)
T17D0 000:612.249 - 0.014ms returns 0
T17D0 000:612.261 JLINK_WriteReg(MSP, 0x20001000)
T17D0 000:612.271 - 0.014ms returns 0
T17D0 000:612.282 JLINK_WriteReg(PSP, 0x20001000)
T17D0 000:612.292 - 0.014ms returns 0
T17D0 000:612.303 JLINK_WriteReg(CFBP, 0x00000000)
T17D0 000:612.313 - 0.014ms returns 0
T17D0 000:612.325 JLINK_SetBPEx(Addr = 0x20000000, Type = 0xFFFFFFF2)
T17D0 000:612.337 - 0.017ms returns 0x00000006
T17D0 000:612.349 JLINK_Go()
T17D0 000:612.367   CPU_ReadMem(4 bytes @ 0xE0001000)
T17D0 000:615.017 - 2.681ms
T17D0 000:615.045 JLINK_IsHalted()
T17D0 000:615.534 - 0.497ms returns FALSE
T17D0 000:615.556 JLINK_HasError()
T17D0 000:620.467 JLINK_IsHalted()
T17D0 000:620.923 - 0.466ms returns FALSE
T17D0 000:620.944 JLINK_HasError()
T17D0 000:622.460 JLINK_IsHalted()
T17D0 000:622.915 - 0.464ms returns FALSE
T17D0 000:622.935 JLINK_HasError()
T17D0 000:624.452 JLINK_IsHalted()
T17D0 000:624.904 - 0.461ms returns FALSE
T17D0 000:624.924 JLINK_HasError()
T17D0 000:626.445 JLINK_IsHalted()
T17D0 000:626.901 - 0.463ms returns FALSE
T17D0 000:626.920 JLINK_HasError()
T17D0 000:628.445 JLINK_IsHalted()
T17D0 000:628.906 - 0.470ms returns FALSE
T17D0 000:628.926 JLINK_HasError()
T17D0 000:630.439 JLINK_IsHalted()
T17D0 000:630.844 - 0.414ms returns FALSE
T17D0 000:630.868 JLINK_HasError()
T17D0 000:632.430 JLINK_IsHalted()
T17D0 000:632.882 - 0.460ms returns FALSE
T17D0 000:632.901 JLINK_HasError()
T17D0 000:634.426 JLINK_IsHalted()
T17D0 000:634.839 - 0.422ms returns FALSE
T17D0 000:634.858 JLINK_HasError()
T17D0 000:636.418 JLINK_IsHalted()
T17D0 000:636.866 - 0.457ms returns FALSE
T17D0 000:636.885 JLINK_HasError()
T17D0 000:638.413 JLINK_IsHalted()
T17D0 000:638.845 - 0.441ms returns FALSE
T17D0 000:638.865 JLINK_HasError()
T17D0 000:640.411 JLINK_IsHalted()
T17D0 000:640.929 - 0.526ms returns FALSE
T17D0 000:640.948 JLINK_HasError()
T17D0 000:642.406 JLINK_IsHalted()
T17D0 000:642.841 - 0.444ms returns FALSE
T17D0 000:642.860 JLINK_HasError()
T17D0 000:644.399 JLINK_IsHalted()
T17D0 000:644.868 - 0.477ms returns FALSE
T17D0 000:644.887 JLINK_HasError()
T17D0 000:646.391 JLINK_IsHalted()
T17D0 000:648.657   CPU_ReadMem(2 bytes @ 0x20000000)
T17D0 000:649.127 - 2.746ms returns TRUE
T17D0 000:649.150 JLINK_ReadReg(R15 (PC))
T17D0 000:649.165 - 0.020ms returns 0x20000000
T17D0 000:649.179 JLINK_ClrBPEx(BPHandle = 0x00000006)
T17D0 000:649.191 - 0.017ms returns 0x00
T17D0 000:649.204 JLINK_ReadReg(R0)
T17D0 000:649.216 - 0.016ms returns 0x00000000
T17D0 000:650.022 JLINK_WriteMem(0x20000164, 0x29C Bytes, ...)
T17D0 000:650.040   Data:  2D 2D 2D 0D 0A 00 00 00 B0 03 00 20 65 6E 20 20 ...
T17D0 000:650.068   CPU_WriteMem(668 bytes @ 0x20000164)
T17D0 000:652.953 - 2.945ms returns 0x29C
T17D0 000:652.981 JLINK_WriteMem(0x20000400, 0x164 Bytes, ...)
T17D0 000:652.996   Data:  65 5F 74 6F 74 61 6C 20 7D 3A 25 64 0A 00 00 00 ...
T17D0 000:653.025   CPU_WriteMem(356 bytes @ 0x20000400)
T17D0 000:654.880 - 1.911ms returns 0x164
T17D0 000:654.907 JLINK_HasError()
T17D0 000:654.924 JLINK_WriteReg(R0, 0x08000800)
T17D0 000:654.942 - 0.024ms returns 0
T17D0 000:654.958 JLINK_WriteReg(R1, 0x00000400)
T17D0 000:654.972 - 0.020ms returns 0
T17D0 000:654.988 JLINK_WriteReg(R2, 0x20000164)
T17D0 000:655.001 - 0.019ms returns 0
T17D0 000:655.016 JLINK_WriteReg(R3, 0x00000000)
T17D0 000:655.029 - 0.019ms returns 0
T17D0 000:655.045 JLINK_WriteReg(R4, 0x00000000)
T17D0 000:655.058 - 0.019ms returns 0
T17D0 000:655.074 JLINK_WriteReg(R5, 0x00000000)
T17D0 000:655.087 - 0.019ms returns 0
T17D0 000:655.102 JLINK_WriteReg(R6, 0x00000000)
T17D0 000:655.116 - 0.019ms returns 0
T17D0 000:655.131 JLINK_WriteReg(R7, 0x00000000)
T17D0 000:655.144 - 0.019ms returns 0
T17D0 000:655.160 JLINK_WriteReg(R8, 0x00000000)
T17D0 000:655.173 - 0.019ms returns 0
T17D0 000:655.188 JLINK_WriteReg(R9, 0x20000160)
T17D0 000:655.201 - 0.019ms returns 0
T17D0 000:655.217 JLINK_WriteReg(R10, 0x00000000)
T17D0 000:655.230 - 0.019ms returns 0
T17D0 000:655.246 JLINK_WriteReg(R11, 0x00000000)
T17D0 000:655.259 - 0.019ms returns 0
T17D0 000:655.275 JLINK_WriteReg(R12, 0x00000000)
T17D0 000:655.288 - 0.019ms returns 0
T17D0 000:655.303 JLINK_WriteReg(R13 (SP), 0x20001000)
T17D0 000:655.317 - 0.020ms returns 0
T17D0 000:655.333 JLINK_WriteReg(R14, 0x20000001)
T17D0 000:655.346 - 0.019ms returns 0
T17D0 000:655.364 JLINK_WriteReg(R15 (PC), 0x200000F4)
T17D0 000:655.377 - 0.019ms returns 0
T17D0 000:655.393 JLINK_WriteReg(XPSR, 0x01000000)
T17D0 000:655.407 - 0.019ms returns 0
T17D0 000:655.422 JLINK_WriteReg(MSP, 0x20001000)
T17D0 000:655.435 - 0.019ms returns 0
T17D0 000:655.451 JLINK_WriteReg(PSP, 0x20001000)
T17D0 000:655.464 - 0.019ms returns 0
T17D0 000:655.480 JLINK_WriteReg(CFBP, 0x00000000)
T17D0 000:655.493 - 0.019ms returns 0
T17D0 000:655.509 JLINK_SetBPEx(Addr = 0x20000000, Type = 0xFFFFFFF2)
T17D0 000:655.524 - 0.021ms returns 0x00000007
T17D0 000:655.540 JLINK_Go()
T17D0 000:655.563   CPU_ReadMem(4 bytes @ 0xE0001000)
T17D0 000:658.324 - 2.800ms
T17D0 000:658.361 JLINK_IsHalted()
T17D0 000:658.834 - 0.489ms returns FALSE
T17D0 000:658.866 JLINK_HasError()
T17D0 000:660.366 JLINK_IsHalted()
T17D0 000:660.849 - 0.505ms returns FALSE
T17D0 000:660.888 JLINK_HasError()
T17D0 000:662.878 JLINK_IsHalted()
T17D0 000:663.445 - 0.689ms returns FALSE
T17D0 000:663.598 JLINK_HasError()
T17D0 000:664.874 JLINK_IsHalted()
T17D0 000:665.386 - 0.532ms returns FALSE
T17D0 000:665.427 JLINK_HasError()
T17D0 000:666.869 JLINK_IsHalted()
T17D0 000:667.405 - 0.556ms returns FALSE
T17D0 000:667.453 JLINK_HasError()
T17D0 000:668.857 JLINK_IsHalted()
T17D0 000:669.365 - 0.527ms returns FALSE
T17D0 000:669.406 JLINK_HasError()
T17D0 000:670.853 JLINK_IsHalted()
T17D0 000:671.407 - 0.574ms returns FALSE
T17D0 000:671.448 JLINK_HasError()
T17D0 000:672.872 JLINK_IsHalted()
T17D0 000:673.460 - 0.612ms returns FALSE
T17D0 000:673.510 JLINK_HasError()
T17D0 000:674.861 JLINK_IsHalted()
T17D0 000:675.429 - 0.592ms returns FALSE
T17D0 000:675.478 JLINK_HasError()
T17D0 000:676.840 JLINK_IsHalted()
T17D0 000:677.363 - 0.546ms returns FALSE
T17D0 000:677.412 JLINK_HasError()
T17D0 000:678.833 JLINK_IsHalted()
T17D0 000:679.411 - 0.601ms returns FALSE
T17D0 000:679.460 JLINK_HasError()
T17D0 000:680.827 JLINK_IsHalted()
T17D0 000:681.361 - 0.557ms returns FALSE
T17D0 000:681.410 JLINK_HasError()
T17D0 000:682.824 JLINK_IsHalted()
T17D0 000:683.361 - 0.560ms returns FALSE
T17D0 000:683.410 JLINK_HasError()
T17D0 000:684.833 JLINK_IsHalted()
T17D0 000:685.414 - 0.605ms returns FALSE
T17D0 000:685.464 JLINK_HasError()
T17D0 000:686.815 JLINK_IsHalted()
T17D0 000:687.404 - 0.612ms returns FALSE
T17D0 000:687.452 JLINK_HasError()
T17D0 000:688.811 JLINK_IsHalted()
T17D0 000:691.316   CPU_ReadMem(2 bytes @ 0x20000000)
T17D0 000:691.896 - 3.108ms returns TRUE
T17D0 000:691.945 JLINK_ReadReg(R15 (PC))
T17D0 000:691.977 - 0.044ms returns 0x20000000
T17D0 000:692.008 JLINK_ClrBPEx(BPHandle = 0x00000007)
T17D0 000:692.034 - 0.038ms returns 0x00
T17D0 000:692.064 JLINK_ReadReg(R0)
T17D0 000:692.089 - 0.037ms returns 0x00000000
T17D0 000:693.904 JLINK_WriteMem(0x20000164, 0x29C Bytes, ...)
T17D0 000:693.946   Data:  36 48 00 68 40 F0 01 00 34 49 08 60 08 46 40 68 ...
T17D0 000:694.003   CPU_WriteMem(668 bytes @ 0x20000164)
T17D0 000:696.990 - 3.110ms returns 0x29C
T17D0 000:697.039 JLINK_WriteMem(0x20000400, 0x164 Bytes, ...)
T17D0 000:697.067   Data:  31 48 03 F0 B3 FE 31 48 00 88 00 28 04 DD 2F 48 ...
T17D0 000:697.117   CPU_WriteMem(356 bytes @ 0x20000400)
T17D0 000:699.061 - 2.045ms returns 0x164
T17D0 000:699.111 JLINK_HasError()
T17D0 000:699.143 JLINK_WriteReg(R0, 0x08000C00)
T17D0 000:699.175 - 0.044ms returns 0
T17D0 000:699.206 JLINK_WriteReg(R1, 0x00000400)
T17D0 000:699.231 - 0.037ms returns 0
T17D0 000:699.261 JLINK_WriteReg(R2, 0x20000164)
T17D0 000:699.286 - 0.036ms returns 0
T17D0 000:699.316 JLINK_WriteReg(R3, 0x00000000)
T17D0 000:699.341 - 0.036ms returns 0
T17D0 000:699.370 JLINK_WriteReg(R4, 0x00000000)
T17D0 000:699.395 - 0.036ms returns 0
T17D0 000:699.424 JLINK_WriteReg(R5, 0x00000000)
T17D0 000:699.449 - 0.036ms returns 0
T17D0 000:699.478 JLINK_WriteReg(R6, 0x00000000)
T17D0 000:699.503 - 0.036ms returns 0
T17D0 000:699.532 JLINK_WriteReg(R7, 0x00000000)
T17D0 000:699.557 - 0.036ms returns 0
T17D0 000:699.586 JLINK_WriteReg(R8, 0x00000000)
T17D0 000:699.611 - 0.036ms returns 0
T17D0 000:699.640 JLINK_WriteReg(R9, 0x20000160)
T17D0 000:699.665 - 0.036ms returns 0
T17D0 000:699.695 JLINK_WriteReg(R10, 0x00000000)
T17D0 000:699.719 - 0.036ms returns 0
T17D0 000:699.749 JLINK_WriteReg(R11, 0x00000000)
T17D0 000:699.780 - 0.043ms returns 0
T17D0 000:699.809 JLINK_WriteReg(R12, 0x00000000)
T17D0 000:699.834 - 0.036ms returns 0
T17D0 000:699.864 JLINK_WriteReg(R13 (SP), 0x20001000)
T17D0 000:699.891 - 0.039ms returns 0
T17D0 000:699.920 JLINK_WriteReg(R14, 0x20000001)
T17D0 000:699.945 - 0.037ms returns 0
T17D0 000:699.975 JLINK_WriteReg(R15 (PC), 0x200000F4)
T17D0 000:700.000 - 0.036ms returns 0
T17D0 000:700.029 JLINK_WriteReg(XPSR, 0x01000000)
T17D0 000:700.054 - 0.037ms returns 0
T17D0 000:700.084 JLINK_WriteReg(MSP, 0x20001000)
T17D0 000:700.108 - 0.036ms returns 0
T17D0 000:700.138 JLINK_WriteReg(PSP, 0x20001000)
T17D0 000:700.163 - 0.037ms returns 0
T17D0 000:700.192 JLINK_WriteReg(CFBP, 0x00000000)
T17D0 000:700.236 - 0.055ms returns 0
T17D0 000:700.266 JLINK_SetBPEx(Addr = 0x20000000, Type = 0xFFFFFFF2)
T17D0 000:700.295 - 0.040ms returns 0x00000008
T17D0 000:700.325 JLINK_Go()
T17D0 000:700.368   CPU_ReadMem(4 bytes @ 0xE0001000)
T17D0 000:703.177 - 2.875ms
T17D0 000:703.226 JLINK_IsHalted()
T17D0 000:703.769 - 0.565ms returns FALSE
T17D0 000:703.818 JLINK_HasError()
T17D0 000:705.765 JLINK_IsHalted()
T17D0 000:706.357 - 0.615ms returns FALSE
T17D0 000:706.407 JLINK_HasError()
T17D0 000:707.765 JLINK_IsHalted()
T17D0 000:708.322 - 0.580ms returns FALSE
T17D0 000:708.372 JLINK_HasError()
T17D0 000:709.747 JLINK_IsHalted()
T17D0 000:710.281 - 0.557ms returns FALSE
T17D0 000:710.329 JLINK_HasError()
T17D0 000:711.776 JLINK_IsHalted()
T17D0 000:712.351 - 0.597ms returns FALSE
T17D0 000:712.400 JLINK_HasError()
T17D0 000:713.744 JLINK_IsHalted()
T17D0 000:714.312 - 0.591ms returns FALSE
T17D0 000:714.361 JLINK_HasError()
T17D0 000:715.736 JLINK_IsHalted()
T17D0 000:716.263 - 0.550ms returns FALSE
T17D0 000:716.311 JLINK_HasError()
T17D0 000:717.739 JLINK_IsHalted()
T17D0 000:718.288 - 0.572ms returns FALSE
T17D0 000:718.337 JLINK_HasError()
T17D0 000:719.737 JLINK_IsHalted()
T17D0 000:720.287 - 0.574ms returns FALSE
T17D0 000:720.336 JLINK_HasError()
T17D0 000:721.723 JLINK_IsHalted()
T17D0 000:722.269 - 0.570ms returns FALSE
T17D0 000:722.320 JLINK_HasError()
T17D0 000:732.698 JLINK_IsHalted()
T17D0 000:733.318 - 0.645ms returns FALSE
T17D0 000:733.369 JLINK_HasError()
T17D0 000:734.688 JLINK_IsHalted()
T17D0 000:737.197   CPU_ReadMem(2 bytes @ 0x20000000)
T17D0 000:737.775 - 3.111ms returns TRUE
T17D0 000:737.826 JLINK_ReadReg(R15 (PC))
T17D0 000:737.860 - 0.046ms returns 0x20000000
T17D0 000:737.892 JLINK_ClrBPEx(BPHandle = 0x00000008)
T17D0 000:737.919 - 0.038ms returns 0x00
T17D0 000:737.950 JLINK_ReadReg(R0)
T17D0 000:737.975 - 0.036ms returns 0x00000000
T17D0 000:739.721 JLINK_WriteMem(0x20000164, 0x29C Bytes, ...)
T17D0 000:739.764   Data:  01 EB C5 20 4A 14 2C 49 FF F7 CC FF 00 26 0B E0 ...
T17D0 000:739.822   CPU_WriteMem(668 bytes @ 0x20000164)
T17D0 000:742.867 - 3.171ms returns 0x29C
T17D0 000:742.918 JLINK_WriteMem(0x20000400, 0x164 Bytes, ...)
T17D0 000:742.945   Data:  06 46 0F 46 68 46 10 99 88 42 01 D1 00 20 A5 E7 ...
T17D0 000:742.996   CPU_WriteMem(356 bytes @ 0x20000400)
T17D0 000:744.934 - 2.040ms returns 0x164
T17D0 000:745.065 JLINK_HasError()
T17D0 000:745.097 JLINK_WriteReg(R0, 0x08001000)
T17D0 000:745.129 - 0.044ms returns 0
T17D0 000:745.160 JLINK_WriteReg(R1, 0x00000400)
T17D0 000:745.186 - 0.037ms returns 0
T17D0 000:745.215 JLINK_WriteReg(R2, 0x20000164)
T17D0 000:745.240 - 0.036ms returns 0
T17D0 000:745.269 JLINK_WriteReg(R3, 0x00000000)
T17D0 000:745.294 - 0.036ms returns 0
T17D0 000:745.324 JLINK_WriteReg(R4, 0x00000000)
T17D0 000:745.348 - 0.036ms returns 0
T17D0 000:745.377 JLINK_WriteReg(R5, 0x00000000)
T17D0 000:745.402 - 0.036ms returns 0
T17D0 000:745.431 JLINK_WriteReg(R6, 0x00000000)
T17D0 000:745.456 - 0.036ms returns 0
T17D0 000:745.485 JLINK_WriteReg(R7, 0x00000000)
T17D0 000:745.510 - 0.036ms returns 0
T17D0 000:745.539 JLINK_WriteReg(R8, 0x00000000)
T17D0 000:745.564 - 0.036ms returns 0
T17D0 000:745.593 JLINK_WriteReg(R9, 0x20000160)
T17D0 000:745.618 - 0.041ms returns 0
T17D0 000:745.653 JLINK_WriteReg(R10, 0x00000000)
T17D0 000:745.678 - 0.037ms returns 0
T17D0 000:745.707 JLINK_WriteReg(R11, 0x00000000)
T17D0 000:745.732 - 0.036ms returns 0
T17D0 000:745.761 JLINK_WriteReg(R12, 0x00000000)
T17D0 000:745.786 - 0.036ms returns 0
T17D0 000:745.815 JLINK_WriteReg(R13 (SP), 0x20001000)
T17D0 000:745.842 - 0.038ms returns 0
T17D0 000:745.871 JLINK_WriteReg(R14, 0x20000001)
T17D0 000:745.896 - 0.036ms returns 0
T17D0 000:745.925 JLINK_WriteReg(R15 (PC), 0x200000F4)
T17D0 000:745.951 - 0.037ms returns 0
T17D0 000:745.980 JLINK_WriteReg(XPSR, 0x01000000)
T17D0 000:746.005 - 0.037ms returns 0
T17D0 000:746.035 JLINK_WriteReg(MSP, 0x20001000)
T17D0 000:746.060 - 0.046ms returns 0
T17D0 000:746.106 JLINK_WriteReg(PSP, 0x20001000)
T17D0 000:746.132 - 0.037ms returns 0
T17D0 000:746.161 JLINK_WriteReg(CFBP, 0x00000000)
T17D0 000:746.187 - 0.036ms returns 0
T17D0 000:746.217 JLINK_SetBPEx(Addr = 0x20000000, Type = 0xFFFFFFF2)
T17D0 000:746.245 - 0.040ms returns 0x00000009
T17D0 000:746.275 JLINK_Go()
T17D0 000:746.319   CPU_ReadMem(4 bytes @ 0xE0001000)
T17D0 000:749.205 - 2.953ms
T17D0 000:749.254 JLINK_IsHalted()
T17D0 000:749.775 - 0.544ms returns FALSE
T17D0 000:749.824 JLINK_HasError()
T17D0 000:751.653 JLINK_IsHalted()
T17D0 000:752.192 - 0.563ms returns FALSE
T17D0 000:752.242 JLINK_HasError()
T17D0 000:753.638 JLINK_IsHalted()
T17D0 000:754.182 - 0.568ms returns FALSE
T17D0 000:754.232 JLINK_HasError()
T17D0 000:755.627 JLINK_IsHalted()
T17D0 000:756.160 - 0.556ms returns FALSE
T17D0 000:756.208 JLINK_HasError()
T17D0 000:757.742 JLINK_IsHalted()
T17D0 000:758.298 - 0.579ms returns FALSE
T17D0 000:758.347 JLINK_HasError()
T17D0 000:759.617 JLINK_IsHalted()
T17D0 000:760.150 - 0.556ms returns FALSE
T17D0 000:760.198 JLINK_HasError()
T17D0 000:761.620 JLINK_IsHalted()
T17D0 000:762.155 - 0.558ms returns FALSE
T17D0 000:762.203 JLINK_HasError()
T17D0 000:763.603 JLINK_IsHalted()
T17D0 000:764.137 - 0.557ms returns FALSE
T17D0 000:764.185 JLINK_HasError()
T17D0 000:765.602 JLINK_IsHalted()
T17D0 000:766.135 - 0.555ms returns FALSE
T17D0 000:766.183 JLINK_HasError()
T17D0 000:767.600 JLINK_IsHalted()
T17D0 000:768.133 - 0.555ms returns FALSE
T17D0 000:768.181 JLINK_HasError()
T17D0 000:769.591 JLINK_IsHalted()
T17D0 000:770.162 - 0.594ms returns FALSE
T17D0 000:770.210 JLINK_HasError()
T17D0 000:771.593 JLINK_IsHalted()
T17D0 000:772.135 - 0.565ms returns FALSE
T17D0 000:772.186 JLINK_HasError()
T17D0 000:773.596 JLINK_IsHalted()
T17D0 000:774.159 - 0.587ms returns FALSE
T17D0 000:774.209 JLINK_HasError()
T17D0 000:775.574 JLINK_IsHalted()
T17D0 000:776.101 - 0.550ms returns FALSE
T17D0 000:776.150 JLINK_HasError()
T17D0 000:777.572 JLINK_IsHalted()
T17D0 000:778.141 - 0.591ms returns FALSE
T17D0 000:778.189 JLINK_HasError()
T17D0 000:779.567 JLINK_IsHalted()
T17D0 000:782.000   CPU_ReadMem(2 bytes @ 0x20000000)
T17D0 000:782.583 - 3.039ms returns TRUE
T17D0 000:782.632 JLINK_ReadReg(R15 (PC))
T17D0 000:782.664 - 0.044ms returns 0x20000000
T17D0 000:782.695 JLINK_ClrBPEx(BPHandle = 0x00000009)
T17D0 000:782.721 - 0.037ms returns 0x00
T17D0 000:782.751 JLINK_ReadReg(R0)
T17D0 000:782.776 - 0.037ms returns 0x00000000
T17D0 000:785.332 JLINK_WriteMem(0x20000164, 0x29C Bytes, ...)
T17D0 000:785.374   Data:  00 B9 70 BD A1 68 20 68 45 18 28 46 04 F0 38 FB ...
T17D0 000:785.435   CPU_WriteMem(668 bytes @ 0x20000164)
T17D0 000:788.423 - 3.115ms returns 0x29C
T17D0 000:788.473 JLINK_WriteMem(0x20000400, 0x164 Bytes, ...)
T17D0 000:788.501   Data:  03 E0 04 F0 7F 00 29 68 08 70 29 68 03 98 08 44 ...
T17D0 000:788.555   CPU_WriteMem(356 bytes @ 0x20000400)
T17D0 000:790.441 - 1.990ms returns 0x164
T17D0 000:790.491 JLINK_HasError()
T17D0 000:790.526 JLINK_WriteReg(R0, 0x08001400)
T17D0 000:790.558 - 0.044ms returns 0
T17D0 000:790.589 JLINK_WriteReg(R1, 0x00000400)
T17D0 000:790.615 - 0.037ms returns 0
T17D0 000:790.644 JLINK_WriteReg(R2, 0x20000164)
T17D0 000:790.669 - 0.037ms returns 0
T17D0 000:790.699 JLINK_WriteReg(R3, 0x00000000)
T17D0 000:790.724 - 0.036ms returns 0
T17D0 000:790.753 JLINK_WriteReg(R4, 0x00000000)
T17D0 000:790.778 - 0.036ms returns 0
T17D0 000:790.807 JLINK_WriteReg(R5, 0x00000000)
T17D0 000:790.832 - 0.036ms returns 0
T17D0 000:790.861 JLINK_WriteReg(R6, 0x00000000)
T17D0 000:790.886 - 0.037ms returns 0
T17D0 000:790.916 JLINK_WriteReg(R7, 0x00000000)
T17D0 000:790.941 - 0.036ms returns 0
T17D0 000:790.988 JLINK_WriteReg(R8, 0x00000000)
T17D0 000:791.012 - 0.036ms returns 0
T17D0 000:791.042 JLINK_WriteReg(R9, 0x20000160)
T17D0 000:791.066 - 0.036ms returns 0
T17D0 000:791.096 JLINK_WriteReg(R10, 0x00000000)
T17D0 000:791.120 - 0.037ms returns 0
T17D0 000:791.150 JLINK_WriteReg(R11, 0x00000000)
T17D0 000:791.192 - 0.054ms returns 0
T17D0 000:791.222 JLINK_WriteReg(R12, 0x00000000)
T17D0 000:791.247 - 0.037ms returns 0
T17D0 000:791.277 JLINK_WriteReg(R13 (SP), 0x20001000)
T17D0 000:791.303 - 0.038ms returns 0
T17D0 000:791.333 JLINK_WriteReg(R14, 0x20000001)
T17D0 000:791.358 - 0.036ms returns 0
T17D0 000:791.387 JLINK_WriteReg(R15 (PC), 0x200000F4)
T17D0 000:791.413 - 0.059ms returns 0
T17D0 000:791.464 JLINK_WriteReg(XPSR, 0x01000000)
T17D0 000:791.489 - 0.037ms returns 0
T17D0 000:791.522 JLINK_WriteReg(MSP, 0x20001000)
T17D0 000:791.547 - 0.037ms returns 0
T17D0 000:791.576 JLINK_WriteReg(PSP, 0x20001000)
T17D0 000:791.601 - 0.036ms returns 0
T17D0 000:791.631 JLINK_WriteReg(CFBP, 0x00000000)
T17D0 000:791.656 - 0.036ms returns 0
T17D0 000:791.685 JLINK_SetBPEx(Addr = 0x20000000, Type = 0xFFFFFFF2)
T17D0 000:791.713 - 0.040ms returns 0x0000000A
T17D0 000:791.744 JLINK_Go()
T17D0 000:791.792   CPU_ReadMem(4 bytes @ 0xE0001000)
T17D0 000:794.639 - 2.919ms
T17D0 000:794.689 JLINK_IsHalted()
T17D0 000:795.216 - 0.550ms returns FALSE
T17D0 000:795.265 JLINK_HasError()
T17D0 000:796.520 JLINK_IsHalted()
T17D0 000:797.062 - 0.564ms returns FALSE
T17D0 000:797.122 JLINK_HasError()
T17D0 000:798.514 JLINK_IsHalted()
T17D0 000:799.082 - 0.590ms returns FALSE
T17D0 000:799.130 JLINK_HasError()
T17D0 000:800.508 JLINK_IsHalted()
T17D0 000:801.052 - 0.568ms returns FALSE
T17D0 000:801.102 JLINK_HasError()
T17D0 000:802.511 JLINK_IsHalted()
T17D0 000:803.082 - 0.594ms returns FALSE
T17D0 000:803.130 JLINK_HasError()
T17D0 000:804.506 JLINK_IsHalted()
T17D0 000:805.073 - 0.590ms returns FALSE
T17D0 000:805.122 JLINK_HasError()
T17D0 000:806.512 JLINK_IsHalted()
T17D0 000:807.107 - 0.618ms returns FALSE
T17D0 000:807.157 JLINK_HasError()
T17D0 000:808.494 JLINK_IsHalted()
T17D0 000:809.037 - 0.565ms returns FALSE
T17D0 000:809.085 JLINK_HasError()
T17D0 000:810.482 JLINK_IsHalted()
T17D0 000:811.010 - 0.551ms returns FALSE
T17D0 000:811.059 JLINK_HasError()
T17D0 000:812.478 JLINK_IsHalted()
T17D0 000:813.009 - 0.553ms returns FALSE
T17D0 000:813.057 JLINK_HasError()
T17D0 000:814.471 JLINK_IsHalted()
T17D0 000:815.018 - 0.572ms returns FALSE
T17D0 000:815.070 JLINK_HasError()
T17D0 000:816.477 JLINK_IsHalted()
T17D0 000:817.072 - 0.618ms returns FALSE
T17D0 000:817.122 JLINK_HasError()
T17D0 000:818.475 JLINK_IsHalted()
T17D0 000:819.051 - 0.598ms returns FALSE
T17D0 000:819.100 JLINK_HasError()
T17D0 000:820.456 JLINK_IsHalted()
T17D0 000:820.987 - 0.554ms returns FALSE
T17D0 000:821.036 JLINK_HasError()
T17D0 000:822.460 JLINK_IsHalted()
T17D0 000:823.041 - 0.630ms returns FALSE
T17D0 000:823.126 JLINK_HasError()
T17D0 000:824.449 JLINK_IsHalted()
T17D0 000:825.039 - 0.612ms returns FALSE
T17D0 000:825.087 JLINK_HasError()
T17D0 000:826.449 JLINK_IsHalted()
T17D0 000:828.872   CPU_ReadMem(2 bytes @ 0x20000000)
T17D0 000:829.419 - 2.992ms returns TRUE
T17D0 000:829.468 JLINK_ReadReg(R15 (PC))
T17D0 000:829.499 - 0.044ms returns 0x20000000
T17D0 000:829.530 JLINK_ClrBPEx(BPHandle = 0x0000000A)
T17D0 000:829.556 - 0.037ms returns 0x00
T17D0 000:829.586 JLINK_ReadReg(R0)
T17D0 000:829.611 - 0.037ms returns 0x00000000
T17D0 000:831.296 JLINK_WriteMem(0x20000164, 0x29C Bytes, ...)
T17D0 000:831.336   Data:  17 E0 00 E0 15 E0 00 BF 4E 44 00 BF AE 42 9B D3 ...
T17D0 000:831.391   CPU_WriteMem(668 bytes @ 0x20000164)
T17D0 000:834.368 - 3.099ms returns 0x29C
T17D0 000:834.422 JLINK_WriteMem(0x20000400, 0x164 Bytes, ...)
T17D0 000:834.449   Data:  43 E0 20 46 FF F7 8D FF 28 69 A8 61 00 20 28 61 ...
T17D0 000:834.499   CPU_WriteMem(356 bytes @ 0x20000400)
T17D0 000:836.372 - 1.978ms returns 0x164
T17D0 000:836.427 JLINK_HasError()
T17D0 000:836.459 JLINK_WriteReg(R0, 0x08001800)
T17D0 000:836.491 - 0.044ms returns 0
T17D0 000:836.522 JLINK_WriteReg(R1, 0x00000400)
T17D0 000:836.547 - 0.037ms returns 0
T17D0 000:836.577 JLINK_WriteReg(R2, 0x20000164)
T17D0 000:836.602 - 0.036ms returns 0
T17D0 000:836.631 JLINK_WriteReg(R3, 0x00000000)
T17D0 000:836.673 - 0.053ms returns 0
T17D0 000:836.704 JLINK_WriteReg(R4, 0x00000000)
T17D0 000:836.728 - 0.036ms returns 0
T17D0 000:836.758 JLINK_WriteReg(R5, 0x00000000)
T17D0 000:836.783 - 0.036ms returns 0
T17D0 000:836.812 JLINK_WriteReg(R6, 0x00000000)
T17D0 000:836.837 - 0.036ms returns 0
T17D0 000:836.866 JLINK_WriteReg(R7, 0x00000000)
T17D0 000:836.891 - 0.036ms returns 0
T17D0 000:836.920 JLINK_WriteReg(R8, 0x00000000)
T17D0 000:836.945 - 0.036ms returns 0
T17D0 000:836.974 JLINK_WriteReg(R9, 0x20000160)
T17D0 000:836.999 - 0.036ms returns 0
T17D0 000:837.029 JLINK_WriteReg(R10, 0x00000000)
T17D0 000:837.053 - 0.036ms returns 0
T17D0 000:837.083 JLINK_WriteReg(R11, 0x00000000)
T17D0 000:837.108 - 0.036ms returns 0
T17D0 000:837.137 JLINK_WriteReg(R12, 0x00000000)
T17D0 000:837.162 - 0.036ms returns 0
T17D0 000:837.192 JLINK_WriteReg(R13 (SP), 0x20001000)
T17D0 000:837.218 - 0.039ms returns 0
T17D0 000:837.248 JLINK_WriteReg(R14, 0x20000001)
T17D0 000:837.273 - 0.037ms returns 0
T17D0 000:837.302 JLINK_WriteReg(R15 (PC), 0x200000F4)
T17D0 000:837.328 - 0.037ms returns 0
T17D0 000:837.357 JLINK_WriteReg(XPSR, 0x01000000)
T17D0 000:837.382 - 0.040ms returns 0
T17D0 000:837.414 JLINK_WriteReg(MSP, 0x20001000)
T17D0 000:837.440 - 0.037ms returns 0
T17D0 000:837.469 JLINK_WriteReg(PSP, 0x20001000)
T17D0 000:837.494 - 0.036ms returns 0
T17D0 000:837.523 JLINK_WriteReg(CFBP, 0x00000000)
T17D0 000:837.549 - 0.036ms returns 0
T17D0 000:837.579 JLINK_SetBPEx(Addr = 0x20000000, Type = 0xFFFFFFF2)
T17D0 000:837.607 - 0.040ms returns 0x0000000B
T17D0 000:837.643 JLINK_Go()
T17D0 000:837.688   CPU_ReadMem(4 bytes @ 0xE0001000)
T17D0 000:840.680 - 3.062ms
T17D0 000:840.733 JLINK_IsHalted()
T17D0 000:841.254 - 0.545ms returns FALSE
T17D0 000:841.304 JLINK_HasError()
T17D0 000:853.359 JLINK_IsHalted()
T17D0 000:853.898 - 0.555ms returns FALSE
